!Agilent Technologies,N5230C,MY49000750,A.09.42.22
!Agilent N5230C: A.09.42.22
!Date: Friday, December 19, 2025 12:09:48
!Correction: S11(Full 2 Port(1,2)) 
!S21(Full 2 Port(1,2)) 
!S12(Full 2 Port(1,2)) 
!S22(Full 2 Port(1,2)) 
!S2P File: Measurements: S11, S21, S12, S22:
# Hz S  RI   R 50
500000000 0.36796901 -0.039227422 -0.43189225 -0.70534503 -0.43129256 -0.70528084 0.32336846 -0.31162497
510000000 0.37324661 -0.054631956 -0.4554733 -0.67574584 -0.45524898 -0.67572689 0.32650104 -0.32483339
520000000 0.37874821 -0.072908714 -0.47849143 -0.6471293 -0.47800308 -0.64688581 0.3285954 -0.33841783
530000000 0.39130607 -0.095598623 -0.49797404 -0.62420648 -0.49709061 -0.62372553 0.32623991 -0.35703322
540000000 0.40422678 -0.127609 -0.51899737 -0.60625404 -0.51858407 -0.60577255 0.31880492 -0.37596041
550000000 0.4065952 -0.16505641 -0.54537171 -0.58506435 -0.5448758 -0.58512253 0.30816925 -0.39054054
560000000 0.40256605 -0.19976395 -0.57176614 -0.56032068 -0.5710054 -0.56027156 0.29752865 -0.40352711
570000000 0.39488274 -0.23083615 -0.59500504 -0.53223491 -0.59461528 -0.53159064 0.2883881 -0.41451231
580000000 0.38647267 -0.26188636 -0.61680382 -0.50397831 -0.61596376 -0.50397354 0.27810839 -0.42619616
590000000 0.3743363 -0.29142109 -0.63693267 -0.47431177 -0.63674855 -0.4745023 0.26766002 -0.43710321
600000000 0.36432782 -0.31908116 -0.65225768 -0.44519654 -0.65206754 -0.4452861 0.25854281 -0.45009738
610000000 0.34733897 -0.34942496 -0.67127043 -0.41693321 -0.6709823 -0.41653752 0.24455342 -0.46108758
620000000 0.32928419 -0.37446597 -0.68680841 -0.38487229 -0.686037 -0.38529363 0.23308489 -0.47071186
630000000 0.31122842 -0.39931545 -0.69965458 -0.35459539 -0.69952112 -0.35473594 0.22073539 -0.48133719
640000000 0.29046643 -0.4238663 -0.71229196 -0.32475531 -0.71151215 -0.32510057 0.20777997 -0.49177992
650000000 0.26668608 -0.44666362 -0.72393692 -0.29409695 -0.72408026 -0.29424301 0.19321807 -0.50196809
660000000 0.24114807 -0.46683046 -0.73552155 -0.26316845 -0.73539531 -0.26287493 0.1772124 -0.51072264
670000000 0.21477084 -0.4846299 -0.74513161 -0.2308851 -0.74478012 -0.23099956 0.16131285 -0.51792467
680000000 0.18723173 -0.49920407 -0.7526443 -0.19805156 -0.75307578 -0.19805849 0.14520249 -0.52464491
690000000 0.15984565 -0.51178527 -0.75960273 -0.16543421 -0.75929201 -0.16521932 0.12866887 -0.53024375
700000000 0.1320437 -0.52281129 -0.76425797 -0.13213189 -0.76377749 -0.13232563 0.11258144 -0.53526133
710000000 0.10369598 -0.53169972 -0.76694798 -0.099336959 -0.76693368 -0.099407136 0.096523888 -0.53903103
720000000 0.076006971 -0.53919733 -0.76885092 -0.067334659 -0.76800621 -0.067209162 0.080537431 -0.54290599
730000000 0.047511786 -0.54540092 -0.76922363 -0.035438139 -0.76907587 -0.035614599 0.063914761 -0.54617268
740000000 0.019282898 -0.54876983 -0.76908654 -0.0032152736 -0.76821983 -0.0033000347 0.047026996 -0.54822153
750000000 -0.0076742638 -0.5516631 -0.76614779 0.026699342 -0.76630211 0.026621226 0.031877447 -0.55025971
760000000 -0.040373988 -0.55236316 -0.76296008 0.062889658 -0.76305711 0.062543966 0.010956814 -0.55213398
770000000 -0.066723302 -0.55112314 -0.75931203 0.090439186 -0.75937754 0.089906357 -0.0044673765 -0.55232739
780000000 -0.095065892 -0.54857534 -0.75432324 0.12089597 -0.75408018 0.12073445 -0.022825373 -0.55219996
790000000 -0.12284887 -0.54356015 -0.74890482 0.15227337 -0.74857628 0.15199439 -0.041188367 -0.55050826
800000000 -0.14996175 -0.53696829 -0.74057472 0.18278714 -0.74029917 0.18223344 -0.05899347 -0.54730988
810000000 -0.17591067 -0.53026938 -0.7310096 0.21241659 -0.73083496 0.21210822 -0.075360052 -0.54435056
820000000 -0.20163737 -0.52194458 -0.72062308 0.24136648 -0.72066712 0.24108621 -0.092083067 -0.54125416
830000000 -0.22762226 -0.51221371 -0.71037287 0.26960531 -0.70940644 0.26902983 -0.10891963 -0.53822517
840000000 -0.25268784 -0.50077075 -0.69867206 0.29752859 -0.69839406 0.29682201 -0.12691206 -0.53415591
850000000 -0.27764267 -0.48763505 -0.68687981 0.32586268 -0.68662059 0.32521176 -0.14518151 -0.52946329
860000000 -0.30022243 -0.47333387 -0.67355138 0.35300833 -0.6735332 0.35262892 -0.16281863 -0.52299297
870000000 -0.32306597 -0.4577519 -0.65877563 0.3796477 -0.65894085 0.37981823 -0.17923535 -0.51568615
880000000 -0.34417817 -0.44130519 -0.64376658 0.40642813 -0.64351511 0.40570062 -0.19617125 -0.50820458
890000000 -0.36398822 -0.42356244 -0.62739301 0.43219015 -0.6275146 0.43219912 -0.21256055 -0.49916315
900000000 -0.38313779 -0.40497139 -0.60999465 0.45726246 -0.61035985 0.45710951 -0.22737731 -0.49010178
910000000 -0.40063426 -0.38486579 -0.59205192 0.48208407 -0.59203178 0.48253667 -0.24342576 -0.48032415
920000000 -0.41709208 -0.36434895 -0.57273787 0.50658476 -0.57258695 0.50638753 -0.25812039 -0.46867654
930000000 -0.43176678 -0.34320095 -0.55210006 0.52997631 -0.5520485 0.5300706 -0.27181035 -0.45681289
940000000 -0.44592565 -0.32102519 -0.53079718 0.55227131 -0.53033638 0.55269319 -0.28473699 -0.44532299
950000000 -0.45867658 -0.29854554 -0.50887585 0.57414812 -0.50922161 0.57435775 -0.2973946 -0.4333778
960000000 -0.46986958 -0.27516297 -0.48606527 0.59571457 -0.48594818 0.59547353 -0.31088451 -0.41965908
970000000 -0.48020124 -0.25189346 -0.46299636 0.61589128 -0.4624137 0.61579573 -0.32226506 -0.40596771
980000000 -0.48835447 -0.22735408 -0.43802711 0.63507688 -0.43789822 0.63511026 -0.33320689 -0.391884
990000000 -0.49582979 -0.20299868 -0.41269583 0.65440297 -0.41284591 0.65421617 -0.34378022 -0.37683424
1000000000 -0.50175339 -0.17894486 -0.38668972 0.6720081 -0.38662735 0.67208737 -0.35367513 -0.36191568
1010000000 -0.50634545 -0.15390842 -0.36016992 0.68867874 -0.35967523 0.68889314 -0.36267301 -0.346892
1020000000 -0.5095765 -0.12943804 -0.3327826 0.70467633 -0.33244568 0.70448828 -0.3711319 -0.33134589
1030000000 -0.51137102 -0.10412931 -0.30519125 0.71930164 -0.3045474 0.71940935 -0.37924284 -0.31563449
1040000000 -0.51223755 -0.0797038 -0.27566174 0.73330474 -0.27561763 0.73323327 -0.38660094 -0.29937506
1050000000 -0.51140022 -0.054887429 -0.24655516 0.74645668 -0.24622303 0.74617481 -0.39352059 -0.28279659
1060000000 -0.50879896 -0.030249497 -0.21635464 0.75832844 -0.21602635 0.75821817 -0.39953357 -0.26592776
1070000000 -0.50468946 -0.0061230049 -0.18554753 0.76881266 -0.1850653 0.76839048 -0.40393618 -0.2486839
1080000000 -0.49977487 0.017460389 -0.15366943 0.77864403 -0.15402144 0.77826929 -0.40808094 -0.23110789
1090000000 -0.49361494 0.041211497 -0.12284752 0.78829366 -0.12260887 0.78789115 -0.41233572 -0.2143051
1100000000 -0.48509949 0.064064078 -0.08995676 0.79504025 -0.089659527 0.7951864 -0.41413963 -0.19694881
1110000000 -0.47572005 0.086161368 -0.057334773 0.80154502 -0.056933325 0.80112952 -0.41549644 -0.17932707
1120000000 -0.4653511 0.1075688 -0.023472168 0.80624139 -0.023162948 0.80616409 -0.41617841 -0.16167656
1130000000 -0.45307127 0.12842101 0.010318069 0.81088918 0.010677941 0.81063694 -0.41602087 -0.14452967
1140000000 -0.44001243 0.14836846 0.044758927 0.81331116 0.045481421 0.8129847 -0.41529995 -0.12666658
1150000000 -0.42609361 0.16732015 0.079820111 0.81486201 0.080317795 0.81405038 -0.41288811 -0.1087551
1160000000 -0.41004947 0.18442887 0.11530922 0.81387341 0.11552955 0.81286544 -0.40941656 -0.091308899
1170000000 -0.39368048 0.20067 0.15109622 0.8111797 0.15100479 0.81018877 -0.40489963 -0.074046053
1180000000 -0.37764037 0.21606223 0.18761113 0.80926448 0.18754998 0.80831915 -0.4012973 -0.0572243
1190000000 -0.36008766 0.23022178 0.22354028 0.80339873 0.22337526 0.80246359 -0.39432573 -0.040720124
1200000000 -0.34144348 0.24240023 0.2595807 0.79555219 0.25925535 0.7944321 -0.38736427 -0.024689103
1210000000 -0.3229152 0.25389284 0.29539856 0.78673768 0.29500273 0.78623956 -0.37981793 -0.0095100682
1220000000 -0.30363545 0.26426631 0.33094886 0.77632236 0.33113366 0.77612096 -0.37121066 0.0055794716
1230000000 -0.28363431 0.27306831 0.36659157 0.76492816 0.36666736 0.76441348 -0.36248237 0.019652801
1240000000 -0.26334614 0.28033677 0.40229937 0.75115883 0.40212363 0.75055879 -0.35231942 0.032791421
1250000000 -0.24314079 0.28555128 0.4377467 0.73558104 0.43692046 0.73483247 -0.34194803 0.045398362
1260000000 -0.22272 0.29012665 0.47165182 0.71829855 0.47128952 0.71779025 -0.33063382 0.057238795
1270000000 -0.20232855 0.29260948 0.50575578 0.69957572 0.50543851 0.69906873 -0.31869251 0.068258204
1280000000 -0.18164361 0.29431173 0.53973162 0.67858458 0.53829116 0.67806339 -0.30614144 0.078222685
1290000000 -0.16151962 0.29365942 0.5721814 0.65591788 0.57143688 0.65563899 -0.29313171 0.087126747
1300000000 -0.14195798 0.29231244 0.60387951 0.63163924 0.603315 0.63153058 -0.27965328 0.094970703
1310000000 -0.12218185 0.28967249 0.6351065 0.60552502 0.63422352 0.60512304 -0.26610041 0.10198865
1320000000 -0.10305358 0.28600129 0.66410691 0.57802337 0.66335928 0.57735109 -0.25248531 0.10816486
1330000000 -0.085193269 0.28074422 0.6921972 0.54862541 0.69145817 0.5482862 -0.23861958 0.11325077
1340000000 -0.067237139 0.27453837 0.71903229 0.51790941 0.71831471 0.5179773 -0.22478665 0.1178638
1350000000 -0.050472647 0.26643014 0.74494141 0.48596179 0.74410051 0.48564911 -0.21026766 0.120539
1360000000 -0.03421358 0.25746959 0.76964021 0.4523181 0.76912874 0.45219502 -0.19636013 0.12236889
1370000000 -0.019362817 0.24747519 0.79218507 0.41736162 0.79148376 0.41715369 -0.18230514 0.12384649
1380000000 -0.0053891325 0.23690945 0.81308258 0.38095078 0.81187779 0.38100445 -0.16862886 0.12385502
1390000000 0.0070843506 0.22455291 0.83165538 0.34426847 0.83196419 0.34349075 -0.15519768 0.12260587
1400000000 0.018386528 0.21228759 0.85014731 0.30520725 0.84925014 0.30522087 -0.14221108 0.12077605
1410000000 0.028578976 0.1996011 0.86546874 0.26580644 0.86475676 0.26584861 -0.13033852 0.11779741
1420000000 0.038020812 0.18568721 0.87894279 0.22544302 0.87842959 0.22546342 -0.11815761 0.11384357
1430000000 0.045603819 0.17176677 0.89073229 0.18438648 0.8898468 0.18407762 -0.1070547 0.10996872
1440000000 0.051947787 0.15685789 0.89953446 0.14237881 0.89917743 0.14233598 -0.0964045 0.10475906
1450000000 0.056844119 0.1427487 0.90732652 0.10032324 0.90681541 0.1001785 -0.086501427 0.098998278
1460000000 0.061060242 0.12814422 0.91235983 0.057711478 0.91222906 0.057501893 -0.076917283 0.092655912
1470000000 0.063507937 0.11331426 0.91590363 0.014162977 0.91557419 0.014228844 -0.068740152 0.085631438
1480000000 0.064730458 0.099022001 0.91695803 -0.029379385 0.91620749 -0.029269151 -0.06074347 0.078434207
1490000000 0.064613029 0.084915012 0.91622537 -0.072942019 0.91562843 -0.072822936 -0.053673588 0.070364013
1500000000 0.063378707 0.070772193 0.91208965 -0.11848637 0.91159815 -0.11833917 -0.04718513 0.062500767
1510000000 0.061165698 0.057435539 0.90532851 -0.16221425 0.90418196 -0.16259621 -0.042111311 0.053122308
1520000000 0.057573859 0.044942506 0.89781666 -0.20382623 0.89709723 -0.20396663 -0.038517501 0.044296868
1530000000 0.05296766 0.032721791 0.88729089 -0.24611406 0.88714015 -0.24602783 -0.034784313 0.035857745
1540000000 0.047116876 0.021089125 0.87466323 -0.28769353 0.87375164 -0.28741896 -0.032724567 0.026922189
1550000000 0.040923569 0.010528805 0.86060697 -0.3288084 0.85986698 -0.32883531 -0.030409442 0.017667294
1560000000 0.033691451 0.00068188069 0.84486049 -0.36938307 0.84350413 -0.36913612 -0.029764779 0.009335204
1570000000 0.025594493 -0.0086517222 0.82581353 -0.40813008 0.82415581 -0.40750006 -0.029954029 0.0007672275
1580000000 0.016844109 -0.016813543 0.80508959 -0.44602063 0.80489719 -0.44621962 -0.030459382 -0.008063715
1590000000 0.0071957465 -0.024123093 0.78255111 -0.48255685 0.78259146 -0.48273298 -0.031948846 -0.016353583
1600000000 -0.0021900614 -0.030226111 0.75939351 -0.51932359 0.75842839 -0.51860785 -0.034355171 -0.024122497
1610000000 -0.012699351 -0.035438672 0.7340132 -0.55427259 0.73410434 -0.55367911 -0.03757643 -0.031532105
1620000000 -0.022801584 -0.039306033 0.70686239 -0.58671278 0.70627153 -0.58634192 -0.041522935 -0.038133815
1630000000 -0.033177022 -0.04241392 0.67868692 -0.61904877 0.67664707 -0.61750847 -0.046310402 -0.044737775
1640000000 -0.043639086 -0.044296637 0.64863205 -0.64889967 0.64807093 -0.64849323 -0.051437099 -0.05079646
1650000000 -0.054993503 -0.045130815 0.61727452 -0.67786205 0.61657566 -0.67682981 -0.056705888 -0.056073066
1660000000 -0.065044284 -0.045120645 0.58447707 -0.70484614 0.58442754 -0.70408916 -0.062956981 -0.060511768
1670000000 -0.075444445 -0.044412825 0.55060083 -0.73097873 0.55111051 -0.73008716 -0.06915383 -0.06405811
1680000000 -0.085597277 -0.042341735 0.51591808 -0.75386459 0.51591039 -0.75370806 -0.076026596 -0.066975519
1690000000 -0.095870994 -0.039894558 0.48017764 -0.77580649 0.48027989 -0.77575624 -0.083269596 -0.070017919
1700000000 -0.10561687 -0.036187604 0.44350645 -0.79613823 0.44349664 -0.79505587 -0.09060996 -0.071658552
1710000000 -0.11499617 -0.031172944 0.40625483 -0.81409496 0.40592045 -0.81366348 -0.097966835 -0.072927609
1720000000 -0.12366688 -0.02604115 0.36798382 -0.83046061 0.36809474 -0.83037889 -0.10519932 -0.073368885
1730000000 -0.13192417 -0.019994859 0.32949528 -0.84606183 0.32960194 -0.84503555 -0.11292855 -0.072872542
1740000000 -0.1392308 -0.013013773 0.2907446 -0.85887957 0.29038671 -0.85776651 -0.12017237 -0.072110288
1750000000 -0.14680904 -0.0056531751 0.25099415 -0.86990279 0.2512787 -0.86952931 -0.12755333 -0.070694514
1760000000 -0.15273412 0.0025102575 0.21163486 -0.87940282 0.21177386 -0.87856048 -0.13441738 -0.068600595
1770000000 -0.15835617 0.010530841 0.17147914 -0.88662237 0.17152458 -0.88614815 -0.14151876 -0.064936243
1780000000 -0.1633078 0.019273287 0.1310605 -0.89259011 0.13143679 -0.8921752 -0.14842203 -0.061887905
1790000000 -0.16694461 0.029033534 0.090530634 -0.89613032 0.091326222 -0.8961938 -0.1545662 -0.05810754
1800000000 -0.17013951 0.037804607 0.050524607 -0.8984974 0.050853226 -0.89714372 -0.16031194 -0.053317744
1810000000 -0.17313364 0.047721315 0.010058501 -0.89823687 0.010644075 -0.89735144 -0.16634013 -0.047916014
1820000000 -0.17461213 0.057647236 -0.029560627 -0.8959989 -0.029713975 -0.89513451 -0.1718709 -0.042538378
1830000000 -0.17567645 0.06754978 -0.069624335 -0.89312226 -0.069032587 -0.89264476 -0.17691259 -0.036014013
1840000000 -0.17555703 0.077761106 -0.10889845 -0.88818079 -0.10872658 -0.88826483 -0.18194108 -0.029667061
1850000000 -0.17451833 0.088172488 -0.1479885 -0.88207221 -0.14754981 -0.88038397 -0.18585069 -0.02213118
1860000000 -0.17347278 0.097886302 -0.18695553 -0.87276042 -0.186511 -0.87305468 -0.18955263 -0.014943629
1870000000 -0.17091826 0.1080614 -0.22522469 -0.86295801 -0.22426346 -0.86301702 -0.19239391 -0.0066404217
1880000000 -0.16855392 0.11761193 -0.26214632 -0.85087246 -0.26202679 -0.85144526 -0.19496085 0.0013482001
1890000000 -0.16471441 0.12704061 -0.29973391 -0.83811134 -0.29961172 -0.83824492 -0.19698034 0.0096159428
1900000000 -0.16057351 0.13611369 -0.33616763 -0.82395506 -0.33580607 -0.82317859 -0.19809096 0.018364385
1910000000 -0.15622714 0.14501725 -0.37197036 -0.80754411 -0.37139109 -0.80644 -0.19903849 0.026578285
1920000000 -0.15049213 0.15314056 -0.40701532 -0.78976196 -0.40639433 -0.78882325 -0.19918612 0.035363249
1930000000 -0.14461587 0.16133521 -0.44055346 -0.76917046 -0.44059354 -0.76968282 -0.19921054 0.044176344
1940000000 -0.13818055 0.16936843 -0.47397739 -0.74917513 -0.4739266 -0.7492308 -0.19796045 0.052934617
1950000000 -0.13127305 0.17621671 -0.50631678 -0.72746354 -0.50571424 -0.72700745 -0.19672856 0.061833173
1960000000 -0.1237519 0.18310414 -0.53757304 -0.70419168 -0.53721458 -0.70367807 -0.19442809 0.070368044
1970000000 -0.11590457 0.18864457 -0.5676915 -0.67910922 -0.56777644 -0.67959177 -0.19196279 0.078477964
1980000000 -0.10740677 0.19417889 -0.59742469 -0.65370601 -0.59700608 -0.65357924 -0.18881701 0.087342151
1990000000 -0.098745435 0.19901235 -0.62495941 -0.62614912 -0.62431073 -0.62560916 -0.18400192 0.095046952
2000000000 -0.089979537 0.2035324 -0.65152639 -0.59747851 -0.65107441 -0.59758502 -0.17932709 0.10253917
2010000000 -0.080896974 0.20701513 -0.67672348 -0.56843561 -0.6766308 -0.56826097 -0.17425679 0.11069018
2020000000 -0.071542621 0.20980902 -0.70151818 -0.53796422 -0.70035088 -0.53776294 -0.16894388 0.11772813
2030000000 -0.062371638 0.21233024 -0.72382075 -0.506652 -0.72377181 -0.50674272 -0.16328888 0.1249519
2040000000 -0.053294748 0.21449558 -0.74510396 -0.47391942 -0.74488091 -0.47387901 -0.15715785 0.13189425
2050000000 -0.043542702 0.2159397 -0.76569825 -0.44046172 -0.7655406 -0.4405992 -0.1503462 0.13808937
2060000000 -0.034244575 0.21700643 -0.78451657 -0.40659502 -0.78321159 -0.40596882 -0.14308266 0.14455691
2070000000 -0.024752866 0.21764137 -0.80121285 -0.3716349 -0.80167484 -0.37170073 -0.13537841 0.15016438
2080000000 -0.015363952 0.21748765 -0.81676298 -0.33587828 -0.81581724 -0.33560824 -0.12771457 0.15557103
2090000000 -0.0060915174 0.21658434 -0.83056444 -0.29971057 -0.83013797 -0.29925379 -0.11968893 0.16036618
2100000000 0.0027312699 0.21515237 -0.84185892 -0.26221696 -0.84188598 -0.26231816 -0.11114199 0.16436295
2110000000 0.01162327 0.2134537 -0.85372984 -0.22512059 -0.85337418 -0.22527133 -0.1028171 0.1676093
2120000000 0.020269502 0.2107099 -0.8625586 -0.18706131 -0.86206365 -0.18740849 -0.09386941 0.17059319
2130000000 0.028538961 0.20748609 -0.86921394 -0.14866349 -0.86885989 -0.14864331 -0.084977157 0.17294237
2140000000 0.036877058 0.20364326 -0.87504679 -0.10994487 -0.87516141 -0.10988899 -0.075885132 0.17506237
2150000000 0.044400442 0.19970226 -0.87950319 -0.071125723 -0.87890106 -0.071287818 -0.06701678 0.17621392
2160000000 0.052616429 0.19556662 -0.88227749 -0.031833835 -0.88157094 -0.031900991 -0.057882063 0.17699914
2170000000 0.059798934 0.19110401 -0.88437349 0.0074220034 -0.88379425 0.0072310027 -0.048718948 0.17788033
2180000000 0.066552281 0.18602502 -0.88456023 0.046523668 -0.88298142 0.046826981 -0.039365966 0.17796406
2190000000 0.072838724 0.18038315 -0.88008183 0.085943393 -0.87955517 0.085419826 -0.030129762 0.17733976
2200000000 0.079058856 0.17478402 -0.87509012 0.1246149 -0.87503606 0.12421029 -0.02079113 0.17608422
2210000000 0.084497005 0.16881697 -0.86819845 0.16336775 -0.86786801 0.1634426 -0.011597813 0.17434664
2220000000 0.089879036 0.1632652 -0.85989434 0.20171024 -0.86039764 0.20188861 -0.0024776736 0.17251137
2230000000 0.093988739 0.15675598 -0.85044247 0.23998179 -0.85003287 0.23968942 0.0063698366 0.16936266
2240000000 0.098405726 0.15039177 -0.83880681 0.27766857 -0.83768255 0.27680206 0.014638802 0.16669454
2250000000 0.10228793 0.14461501 -0.82540113 0.31446138 -0.82555449 0.31406912 0.023422783 0.16291775
2260000000 0.10564979 0.13832389 -0.81138432 0.35112032 -0.81140506 0.35080019 0.03126967 0.15908279
2270000000 0.10842308 0.13210048 -0.79503751 0.38680419 -0.79456103 0.38683006 0.038758904 0.15455945
2280000000 0.11053687 0.12564048 -0.77698326 0.42200053 -0.77642506 0.42174584 0.046705693 0.14975706
2290000000 0.11343136 0.11907205 -0.75742537 0.45629248 -0.75711316 0.456175 0.053573344 0.14470729
2300000000 0.1153938 0.11291968 -0.73639566 0.48963133 -0.73557347 0.48945981 0.060347661 0.13879582
2310000000 0.11701331 0.10641973 -0.71409833 0.5225206 -0.71305519 0.52177006 0.06696149 0.13258186
2320000000 0.11750688 0.10005497 -0.68995476 0.55368352 -0.68886191 0.55277646 0.07291016 0.12627091
2330000000 0.11814415 0.093817592 -0.66364777 0.58319551 -0.66310251 0.58236676 0.078609057 0.11931854
2340000000 0.11834819 0.088125803 -0.63702583 0.61219132 -0.63652992 0.61142576 0.083361864 0.11215904
2350000000 0.11915622 0.082232915 -0.60922968 0.64040911 -0.60926974 0.64041263 0.087655626 0.10546361
